Index;Frequency (Hz);Z' (Ω);-Z'' (Ω);Z (Ω);-Phase (°);Time (s)
1;100000;1.41719323326875;-0.849741927746697;1.6524218602383;-30.9466896814688;133.304470663439
2;93260;1.41544736659973;-0.795264563711292;1.62355688964354;-29.3293151749892;131.989445666759
3;86975;1.41480046831181;-0.744808266044893;1.59887451612192;-27.7641357282077;130.639419670167
4;81113;1.41340839141539;-0.698054766022977;1.57638946243967;-26.2838654200057;129.314396673513
5;75646;1.41249276485375;-0.653925835521492;1.55652009595979;-24.8421886793838;128.049372676706
6;70548;1.4121063277105;-0.61283190600322;1.5393528594106;-23.4600841504027;126.739348680014
7;65793;1.41362053382893;-0.57447346882095;1.52589081524268;-22.1160624721125;125.46932468322
8;61359;1.41122628173412;-0.538538783108826;1.51049119135778;-20.8873800782486;124.074298686743
9;57224;1.41378197716141;-0.505328624623444;1.50137819945883;-19.6684328469776;122.849276689835
10;53367;1.40863916570109;-0.473469494724607;1.48608131055533;-18.5784421907934;121.604251692979
11;49770;1.40655585141941;-0.444519114153543;1.47512596276048;-17.5382940959642;120.22922869645
12;46416;1.40838749498768;-0.416959735978247;1.46881270333039;-16.4916352175733;118.919203699758
13;43288;1.40850622849832;-0.39126922075804;1.46184178310485;-15.5247715186947;117.549177703217
14;40370;1.40455751285655;-0.366570783258884;1.45160461078795;-14.6271557187323;116.184153706663
15;37649;1.40532191262207;-0.343795840613313;1.44676371882861;-13.7467593334169;114.984130709693
16;35112;1.40421681811196;-0.322659584765959;1.44081021647885;-12.9407396310575;113.589104713215
17;32745;1.40219762638783;-0.302123903922294;1.43437688100753;-12.1593194073902;112.304080716459
18;30539;1.39835102899622;-0.28310720616085;1.42672186864679;-11.4452788483614;111.014057719716
19;28480;1.39902073886213;-0.265568941197093;1.42400347271167;-10.7482826287869;109.709033723011
20;26561;1.39793163542014;-0.24866137801716;1.41987511360183;-10.0861680337291;108.419007726268
21;24771;1.39797396323631;-0.232961290541325;1.41725162366367;-9.46095162431722;106.983982729891
22;23101;1.39736693777734;-0.218103060456421;1.41428543928504;-8.87123196233691;105.61395773335
23;21544;1.39963528196024;-0.204408045677966;1.41448279298329;-8.30895196591414;104.273930736734
24;20092;1.40376550225335;-0.191767677828353;1.41680359527222;-7.7789943224673;102.868904740281
25;18738;1.40199844057473;-0.179132746932854;1.41339597013635;-7.28120645437659;101.533879743652
26;17475;1.39356786012819;-0.167168642659554;1.40355859723451;-6.84036179480001;100.178857747073
27;16298;1.39288802430506;-0.156471540271012;1.40164916836105;-6.40951038281151;98.9788327501025
28;15199;1.39323035891628;-0.146306562352071;1.40089130313286;-5.99479967940154;97.7188097532837
29;14175;1.39325784565944;-0.136864889966872;1.39996407903818;-5.61037685524086;96.458787756465
30;13219;1.3941126899379;-0.127869618436685;1.39996458225379;-5.24057167534762;95.1937627596589
31;12328;1.3946844655125;-0.119662081544572;1.39980847693585;-4.90389240101872;93.798737763181
32;11498;1.39686809174514;-0.111861176293167;1.40133985474523;-4.578474909159;92.5287137663875
33;10723;1.40091557878725;-0.104729970322701;1.40482483803947;-4.27537821577409;91.338691769392
34;10000;1.39295755236554;-0.0976379563264589;1.3963752766387;-4.00953202352017;90.0736697725858
35;9326;1.3897847700614;-0.0912251571743739;1.39277555133485;-3.75549454252938;88.7336437759691
36;8697.5;1.39009351215529;-0.0853533458303526;1.39271144397562;-3.51361584953829;87.468621779163
37;8111.3;1.38939629333902;-0.0797911499163882;1.3916855562767;-3.28680894224325;86.2485967822432
38;7564.6;1.39096877413193;-0.074542747875595;1.39296473461137;-3.06757655521159;84.9535757855128
39;7054.8;1.38716162457462;-0.0696423371020285;1.38890871831432;-2.87411682494164;83.7235527886183
40;6579.3;1.3907411409469;-0.064994607607033;1.39225903485676;-2.67570223849178;82.4585287918122
41;6135.9;1.39225244483642;-0.0606839858703476;1.39357433109759;-2.49576644230972;81.2235057949304
42;5722.4;1.38593557558071;-0.0568487924392254;1.38710100744756;-2.34886168363321;79.9234797982126
43;5336.7;1.3857921685755;-0.0529320521259466;1.38680270284834;-2.18742005501639;78.6934608013181
44;4977;1.38951293045372;-0.0494382747697555;1.39039214860783;-2.03769973307951;77.4484348044615
45;4641.6;1.39249275830256;-0.046144033167762;1.39325710251987;-1.89795690060148;76.2034138076049
46;4328.8;1.38563571212162;-0.043081441690606;1.38630528287421;-1.78083593327325;74.9333898108114
47;4037;1.38490328976173;-0.0402865648754403;1.38548912998346;-1.66625308252597;73.6983658139295
48;3764.9;1.3853807964577;-0.0376217422895259;1.38589153496465;-1.55555599459619;72.4533418170729
49;3511.2;1.38564022061779;-0.0350817665747326;1.38608425116936;-1.45030998377731;71.178318820292
50;3274.5;1.38629274600764;-0.0327336678075573;1.38667915201806;-1.35263823385376;69.9532958233849
51;3053.9;1.3896909145459;-0.0307063146453546;1.39003011324594;-1.26578937907798;68.7132748265157
52;2848;1.3895577565904;-0.0285805563079399;1.38985164931349;-1.17829891138076;67.5032518295707
53;2656.1;1.39346894956792;-0.0266875917706156;1.39372448531424;-1.09718947189585;66.2982288326131
54;2477.1;1.39385993020418;-0.024878078832785;1.39408192866676;-1.02252569047789;65.0482068357691
55;2310.1;1.39345552699954;-0.0232365907080928;1.39364925460939;-0.955348174193931;63.7781828389756
56;2154.4;1.39441399958282;-0.0217346187529346;1.39458337717215;-0.892992389193148;62.5181598421568
57;2009.2;1.39273868597211;-0.0203291421757357;1.39288704546525;-0.836259772512741;61.3581388450856
58;1873.8;1.39439761662027;-0.018988787872061;1.39452690447375;-0.780200814593034;60.1481158481406
59;1747.5;1.395204374302;-0.0177579718019036;1.39531738025223;-0.729213525180127;58.9530938511577
60;1629.8;1.39598742286346;-0.0164807945451355;1.39608470422887;-0.676392987601544;57.7380698542254
61;1519.9;1.39742836928344;-0.0154385146239303;1.39751364752261;-0.632966786626984;56.523048857293
62;1417.5;1.40251717003807;-0.0144609537190787;1.40259171943729;-0.590739474762691;55.3330268602975
63;1321.9;1.4013152852645;-0.0134286625700248;1.40137962654462;-0.549042850775706;54.1080018633904
64;1232.8;1.40166964551961;-0.0125569805785012;1.4017258907976;-0.513275540127675;52.8779798664959
65;1149.8;1.40138281951613;-0.0117271511152033;1.40143188664603;-0.479455414756811;51.6179578696772
66;1072.3;1.40577314516753;-0.0109604729064141;1.40581587259518;-0.446712271179124;50.3679328728332
67;1000;1.40547811434095;-0.0103079600568877;1.40551591379533;-0.420207196087885;48.9979088762922
68;932.6;1.40293269329431;-0.00964054598210403;1.40296581641923;-0.393713758046509;47.8178888792714
69;869.75;1.40518443314716;-0.00905148614141056;1.40521358538852;-0.369065276610998;46.5728628824148
70;811.13;1.40625912522838;-0.00851447401969541;1.40628490127567;-0.346904390619167;45.3078418856087
71;756.46;1.40646778326854;-0.0080563665327013;1.40649085685404;-0.328191486259811;44.1028188886511
72;705.48;1.41163008130206;-0.00750030145833173;1.41165000653803;-0.304422228275221;42.8977958916935
73;657.93;1.41181171198778;-0.00724969010488736;1.41183032553933;-0.294212741944568;41.6777738947737
74;613.59;1.41239906113462;-0.00664065539714201;1.41241467218309;-0.269384718768593;40.4327488979171
75;572.24;1.41029972842086;-0.00622251994032886;1.41031345584532;-0.252798614235625;39.1527249011489
76;533.67;1.4104498500292;-0.00588167514454291;1.41046211347555;-0.238926048219095;37.8827029043554
77;497.7;1.40955238338236;-0.00555829167373781;1.40956334235295;-0.225933429149272;36.667680907423
78;464.16;1.41255797687855;-0.00520765654225649;1.412567576341;-0.211230543531288;35.4376559105285
79;432.88;1.41673871114231;-0.00490532043908427;1.41674720321509;-0.198380289182493;34.1776329137098
80;403.7;1.41909633896776;-0.0045596356677812;1.41910366413068;-0.184093900953534;32.9476099168153
81;376.49;1.42032086856006;-0.00443148392584717;1.42032778178736;-0.178765592799137;31.7325899198829
82;351.12;1.4193981889888;-0.00411078539738325;1.41940414169512;-0.165936519482042;30.4425649231399
83;327.45;1.42440176608887;-0.00389928113070624;1.42440710319432;-0.156846052268456;29.1925409262959
84;305.39;1.43082473400601;-0.00372960290182691;1.43082959480896;-0.149347447307902;27.8925189295782
85;284.8;1.42851769936765;-0.00343161546137161;1.42852182111136;-0.137636869835706;26.6224929327847
86;265.61;1.42788668899119;-0.00322493057536025;1.42789033079415;-0.129404243655289;25.3524699359912
87;247.71;1.42805781705843;-0.003102065271993;1.42806118624891;-0.124459224399055;24.1424499390462
88;231.01;1.42958995835941;-0.00295843806133727;1.42959301949814;-0.118569504425052;22.9024239421769
89;215.44;1.43121188941122;-0.00276073703534571;1.43121455207142;-0.110520591294137;21.6124029454339
90;200.92;1.43268248632944;-0.00256962937128888;1.43268479074436;-0.102764402732647;20.4023779484889
91;187.38;1.43265581872769;-0.00243342870110451;1.43265788536885;-0.0973192991743155;19.1423559516702
92;174.75;1.4335873391812;-0.0022955206584527;1.43358917702239;-0.0917443461671925;17.8773309548641
93;162.98;1.43468025385142;-0.0020604162290305;1.43468173338418;-0.0822852844627086;16.5723079581589
94;151.99;1.43673360794948;-0.00188167330915685;1.43673484015178;-0.0750395736537068;15.2822849614159
95;141.75;1.43785009213792;-0.00182807632024127;1.43785125424157;-0.0728455643006775;13.9622579647487
96;132.19;1.44542258724636;-0.00167892187097447;1.44542356231681;-0.0665515365030238;12.6422339680814
97;123.28;1.44362314714122;-0.00152266592012511;1.44362395015926;-0.0604328758872272;11.3422109713637
98;114.98;1.44440309245787;-0.00160752831414004;1.44440398699572;-0.0637665138639166;10.0671879745828
99;107.23;1.4444187707793;-0.0014224545015659;1.44441947119125;-0.0564245042995452;8.75716397789029
100;100;1.44698642109926;-0.00103551922519479;1.44698679162793;-0.0410030600250596;7.55214298093267
