Index;Frequency (Hz);Z' (Ω);-Z'' (Ω);Z (Ω);-Phase (°);Time (s)
1;100000;1.74985696421432;-0.913205890411081;1.97381468063515;-27.558911962711;132.062446666574
2;93260;1.74964710625827;-0.855217876318567;1.94747595939277;-26.0491301496571;130.807424669743
3;86975;1.7474397494157;-0.800331548019023;1.92199798766609;-24.607892020606;129.442399673189
4;81113;1.7457837162139;-0.749323091334963;1.89980153674151;-23.2299164345564;128.082370676623
5;75646;1.74432034236807;-0.701900570324389;1.88024409782899;-21.9194603372699;126.832348679779
6;70548;1.74299739132312;-0.657613161663291;1.86292645494984;-20.670922736448;125.612324682859
7;65793;1.74123736632055;-0.616441760408313;1.84713508164569;-19.4952418441824;124.37230268599
8;61359;1.73904226282304;-0.577633066779614;1.83246499331417;-18.3742092184224;123.007277689436
9;57224;1.73780470778147;-0.541704582314639;1.82027719232212;-17.3131837015316;121.652252692858
10;53367;1.73487360790169;-0.507634372269296;1.80761696476412;-16.3097908734539;120.417230695976
11;49770;1.73269107257617;-0.475879857226218;1.79685280184516;-15.3574908024688;119.057204699409
12;46416;1.73051048271118;-0.446162229071504;1.78710023933279;-14.4572209363968;117.652179702957
13;43288;1.72884860374247;-0.418376090692561;1.77875126083595;-13.6038695298317;116.292152706391
14;40370;1.72551502921638;-0.392033164038942;1.76948922510367;-12.8001821183504;115.032133709572
15;37649;1.72368526444468;-0.367500056671273;1.76242650414624;-12.0355973937439;113.747108712816
16;35112;1.72204002512164;-0.344643613307671;1.75618936003914;-11.3174699367441;112.50208271596
17;32745;1.72019918742023;-0.322979532012567;1.75025741606779;-10.6338825321094;111.272059719065
18;30539;1.71867332296518;-0.30283476524998;1.74514953116235;-9.99309010256435;110.017038722234
19;28480;1.71668994159239;-0.283780230124728;1.7399872340262;-9.38648726654397;108.667012725642
20;26561;1.71552443845122;-0.265936283679739;1.73601446016465;-8.81171128879828;107.391989728861
21;24771;1.7133689541991;-0.248999634852314;1.73136766498912;-8.26876461177451;106.031964732295
22;23101;1.7124882299959;-0.233230657646426;1.72829756626013;-7.7556249593127;104.766940735489
23;21544;1.71064717221877;-0.218394700126662;1.72453181845494;-7.27547327163037;103.421916738885
24;20092;1.70986596359042;-0.20436381124146;1.72203547605446;-6.81568116288331;102.166890742053
25;18738;1.70857655108947;-0.191155848803941;1.71923657169825;-6.38371498597922;100.916867745209
26;17475;1.70668584305582;-0.178955542148766;1.7160424391468;-5.98590867539869;99.5718447486053
27;16298;1.70681268157132;-0.16737681767021;1.71499986270148;-5.60074381800311;98.3568207516729
28;15199;1.70649126692965;-0.156612365573685;1.71366270810733;-5.24360234576907;97.1167997548037
29;14175;1.70422981985651;-0.146399597510103;1.71050639315943;-4.90986410950409;95.8767767579344
30;13219;1.70363306303059;-0.136768412258849;1.70911416003812;-4.58988676259912;94.6017537611535
31;12328;1.70355848067711;-0.127951568474117;1.70835684239619;-4.29532995866465;93.2617277645368
32;11498;1.70314804885681;-0.11959698851009;1.70734200322766;-4.01678104918358;92.0167037676802
33;10723;1.70193959270269;-0.111957223080106;1.70561801028507;-3.76361630275658;90.7416797708993
34;10000;1.70147950507501;-0.104331791554364;1.70467522681573;-3.50888515608428;89.4716587741058
35;9326;1.70135983981317;-0.0974713394759301;1.70414963150198;-3.27890565455801;88.1416317774638
36;8697.5;1.70097830156995;-0.0910389997093193;1.70341283366066;-3.06363599102666;86.8766107806576
37;8111.3;1.70102838074183;-0.0851096250695398;1.70315624661058;-2.86436088878734;85.6365867837884
38;7564.6;1.70028777808401;-0.0793532936658172;1.70213850009847;-2.67208418416654;84.3215617871085
39;7054.8;1.70005101781389;-0.0742070874346207;1.70166981374048;-2.49936951785165;83.0865407902267
40;6579.3;1.70048668627902;-0.0693268090937897;1.70189928511394;-2.33458756480709;81.8215177934205
41;6135.9;1.69971406744563;-0.0647128788766075;1.7009455216923;-2.18035782999249;80.5964917965134
42;5722.4;1.69983764249325;-0.0604289443929757;1.70091142278411;-2.03599799296238;79.3714717996063
43;5336.7;1.69906465699244;-0.0564302364647531;1.70000149418414;-1.9022385853955;78.1114458027876
44;4977;1.69911842602254;-0.052619600610957;1.69993301280309;-1.77381265543791;76.8714248059183
45;4641.6;1.69932942413484;-0.0491509124038426;1.70004008891572;-1.656744645386;75.6213998090743
46;4328.8;1.69925307774185;-0.0459105049256079;1.69987317076236;-1.54764373892233;74.3863778121925
47;4037;1.69832821204781;-0.0428110299757208;1.69886771119034;-1.44399178405666;73.1863538152222
48;3764.9;1.69824270639581;-0.0399685377777944;1.69871297570798;-1.34822062755214;71.946331818353
49;3511.2;1.69881820254085;-0.0373105977308501;1.69922787347288;-1.25816650529352;70.7013098214964
50;3274.5;1.69838268304534;-0.0348063444017288;1.69873930303591;-1.17404489053314;69.486288824564
51;3053.9;1.69791880014945;-0.0325084217999565;1.6982299754123;-1.09685329274093;68.2712658276316
52;2848;1.69858648010126;-0.0302793509222419;1.6988563416237;-1.02125814808306;67.0812418306361
53;2656.1;1.69831191160126;-0.0283349886069622;1.69854826857116;-0.955845999448278;65.856221833729
54;2477.1;1.69837542735161;-0.0264550784088285;1.69858145621733;-0.892406791353504;64.5961958369103
55;2310.1;1.69790214133632;-0.0246364293943186;1.69808086827682;-0.831299014353175;63.3461718400663
56;2154.4;1.69795256571531;-0.0229711886515374;1.69810794442734;-0.775093426207414;62.1211518431592
57;2009.2;1.69810541333037;-0.0214220403638838;1.69824053025337;-0.722762784311517;60.9161288462016
58;1873.8;1.69753018591406;-0.0200749632979869;1.69764888485247;-0.677547335784587;59.7261058492061
59;1747.5;1.6978361945619;-0.01877125456707;1.69793995876252;-0.633435573919764;58.5360858522106
60;1629.8;1.69733867136267;-0.0174609796760973;1.69742848188501;-0.589396311542292;57.3260608552656
61;1519.9;1.69784363694911;-0.0162949943691885;1.69792183046513;-0.549877338353675;56.1360408582701
62;1417.5;1.69849553182827;-0.0152283305035853;1.69856379735662;-0.513687361829652;54.9160188613504
63;1321.9;1.6978160147483;-0.0142592783441246;1.69787589268317;-0.481193045879249;53.7109968643928
64;1232.8;1.69804353352685;-0.01323666012682;1.69809512422704;-0.446625415669399;52.4859738674857
65;1149.8;1.69812804573243;-0.0123964644826854;1.69817329269857;-0.418256138569928;51.2559498705912
66;1072.3;1.69785500321525;-0.0116764824677258;1.69789515347264;-0.394028121844088;49.9359248739239
67;1000;1.70612005994249;-0.0109117482039401;1.70615495345148;-0.366438804428743;48.5709018773703
68;932.6;1.70591789353894;-0.0101944703843667;1.7059483540608;-0.342392313631255;47.3708768804
69;869.75;1.69801139726057;-0.00968848155541342;1.6980390372137;-0.326913635559797;46.1708548834298
70;811.13;1.69770043182274;-0.00906153850976955;1.69772461479808;-0.305815426811606;44.9658318864722
71;756.46;1.69789512196571;-0.00842472637984066;1.69791602301455;-0.284291589949277;43.7458098895524
72;705.48;1.69796893076794;-0.0079027616962358;1.69798732135892;-0.266666612121476;42.5007888926958
73;657.93;1.69725600250873;-0.00715729494191462;1.69727109352714;-0.241613735051401;41.265766895814
74;613.59;1.69749221970964;-0.00695123040722703;1.69750645229375;-0.234624897788024;40.0407418989068
75;572.24;1.69785489463466;-0.00657011962474994;1.69786760664863;-0.221714027288048;38.7957199020502
76;533.67;1.69784685585854;-0.0063321439756089;1.69785866372795;-0.213684433148277;37.5456959052062
77;497.7;1.69858591420982;-0.00577810155641422;1.69859574190259;-0.194903038490093;36.3356749082612
78;464.16;1.69790028718925;-0.00552422095578794;1.69790927385844;-0.186414615405684;35.135652911291
79;432.88;1.69896701031886;-0.00515960586783192;1.69897484492399;-0.174001454743119;33.9406299143081
80;403.7;1.69944266492442;-0.00490790787738197;1.69944975180944;-0.165466968467586;32.7406079173379
81;376.49;1.6988754084452;-0.00455997010388387;1.69888152816705;-0.153787860447995;31.4955829204813
82;351.12;1.69958667523157;-0.00433448729242366;1.69959220238409;-0.146122168055268;30.2455619236373
83;327.45;1.69860332313096;-0.00410696523322957;1.69860828813325;-0.138532235704927;29.0105369267554
84;305.39;1.69951167120265;-0.00371554416004967;1.69951573273754;-0.125262252328852;27.7605149299114
85;284.8;1.69803915062284;-0.00365081341513553;1.69804307527416;-0.123186722809277;26.5404929329917
86;265.61;1.69931862239454;-0.00340509655572488;1.69932203395926;-0.114809193395022;25.2004679363749
87;247.71;1.69891945601583;-0.00325651465269224;1.69892257708137;-0.109825287094386;23.9954449394173
88;231.01;1.69938617052968;-0.00311441317183184;1.69938902437227;-0.105004108968069;22.740420942586
89;215.44;1.70006807766447;-0.00285062044066017;1.70007046757794;-0.0960716628473464;21.5203989456662
90;200.92;1.69990674651577;-0.00247348939209988;1.69990854606935;-0.0833695160687947;20.2753769488096
91;187.38;1.7000625670633;-0.00263175560005377;1.70006460408639;-0.0886957757109197;19.0253539519656
92;174.75;1.70074541165663;-0.00242464058397468;1.70074713998085;-0.081682759353368;17.7503289551847
93;162.98;1.70061630365629;-0.00218933843549954;1.70061771291034;-0.0737613668122574;16.4853069583786
94;151.99;1.70067742439603;-0.0020222777725875;1.70067862674219;-0.0681304550171255;15.1852809616609
95;141.75;1.70069544240283;-0.00193831565736411;1.70069654697048;-0.0653010854711716;13.8952599649178
96;132.19;1.70154333252621;-0.00181414570273621;1.7015442996258;-0.0610873968453077;12.5702339682632
97;123.28;1.70141003415981;-0.0016718898610246;1.70141085560055;-0.0563016557395654;11.3152089714318
98;114.98;1.70118946713874;-0.00154243805386889;1.70119016638909;-0.051949043970261;10.0501879746257
99;107.23;1.70197028945493;-0.00146792854631495;1.70197092249002;-0.0494168964033271;8.75516097789534
100;100;1.70272258214294;-0.00106593591754347;1.70272291579074;-0.0358682159788755;7.53013998098822
